
T075C 000:056 SEGGER J-Link V4.62 Log File (0001ms, 0057ms total)
T075C 000:056 DLL Compiled: Jan 25 2013 15:19:47 (0001ms, 0057ms total)
T075C 000:056 Logging started @ 2017-12-01 10:32 (0001ms, 0057ms total)
T075C 000:057 JLINK_SetWarnOutHandler(...) (0000ms, 0057ms total)
T075C 000:057 JLINK_OpenEx(...)
Firmware: J-Link V9 compiled Feb  2 2016 18:43:46
Hardware: V9.40
S/N: 59425868
Feature(s): RDI, GDB, FlashDL, FlashBP, JFlash, RDDI  returns O.K. (0012ms, 0069ms total)
T075C 000:069 JLINK_SetErrorOutHandler(...) (0000ms, 0069ms total)
T075C 000:069 JLINK_ExecCommand("ProjectFile = "C:\Users\github\Fricker-DB_git\USER\JLinkSettings.ini"", ...)  returns 0x00 (0001ms, 0070ms total)
T075C 000:071 JLINK_ExecCommand("Device = STM32F103VE", ...)
                JLINK_ExecCommand("map ram 0x20000000 - 0x2000FFFF", ...)  returns 0x00 (0000ms, 0000ms total)
                JLINK_AddMirrorAreaEx(Addr = 0x00000000, Size = 0x00000000) (0000ms, 0000ms total)
              Device "STM32F103VE" selected (512 KB flash, 64 KB RAM).  returns 0x00 (0002ms, 0072ms total)
T075C 000:073 JLINK_ExecCommand("DisableConnectionTimeout", ...)  returns 0x00 (0000ms, 0072ms total)
T075C 000:073 JLINK_TIF_Select(JLINKARM_TIF_SWD)  returns 0x00 (0002ms, 0074ms total)
T075C 000:075 JLINK_SetSpeed(2000) (0000ms, 0074ms total)
T075C 000:075 JLINK_GetHardwareVersion()  returns 0x16F30 (0000ms, 0074ms total)
T075C 000:075 JLINK_GetDLLVersion()  returns 46200 (0000ms, 0074ms total)
T075C 000:075 JLINK_GetFirmwareString(...) (0000ms, 0074ms total)
T075C 000:079 JLINK_GetDLLVersion()  returns 46200 (0000ms, 0074ms total)
T075C 000:079 JLINK_GetCompileDateTime() (0000ms, 0074ms total)
T075C 000:081 JLINK_GetFirmwareString(...) (0000ms, 0074ms total)
T075C 000:083 JLINK_GetHardwareVersion()  returns 0x16F30 (0000ms, 0074ms total)
T075C 000:086 JLINK_GetId() >0x108 TIF>Found SWD-DP with ID 0x1BA01477 >0x0D TIF> >0x28 TIF> >0x0D TIF> >0x28 TIF> >0x0D TIF> >0x21 TIF> >0x0D TIF> >0x28 TIF> >0x0D TIF> >0x28 TIF> >0x0D TIF> >0x28 TIF> >0x0D TIF> >0x21 TIF> >0x0D TIF> >0x21 TIF> >0x0D TIF> >0x28 TIF> >0x0D TIF> >0x21 TIF> >0x0D TIF> >0x21 TIF> >0x0D TIF> >0x28 TIF> >0x0D TIF> >0x28 TIF> >0x108 TIF>Found SWD-DP with ID 0x1BA01477 >0x0D TIF> >0x21 TIF> >0x0D TIF> >0x28 TIF> >0x0D TIF> >0x28 TIF> >0x0D TIF> >0x21 TIF> >0x0D TIF> >0x21 TIF>
 >0x0D TIF> >0x28 TIF> >0x0D TIF> >0x21 TIF> >0x0D TIF> >0x21 TIF> >0x0D TIF> >0x21 TIF> >0x0D TIF> >0x21 TIF> >0x0D TIF> >0x21 TIF> >0x0D TIF> >0x28 TIF> >0x0D TIF> >0x28 TIF> >0x0D TIF> >0x21 TIF> >0x0D TIF> >0x21 TIF> >0x0D TIF> >0x28 TIF> >0x0D TIF> >0x21 TIF> >0x0D TIF> >0x21 TIF> >0x0D TIF> >0x28 TIF> >0x0D TIF> >0x28 TIF> >0x0D TIF> >0x28 TIF> >0x0D TIF> >0x21 TIF> >0x0D TIF> >0x21 TIF> >0x0D TIF> >0x28 TIF> >0x0D TIF> >0x28 TIF> >0x0D TIF> >0x28 TIF> >0x0D TIF> >0x28 TIF> >0x0D TIF> >0x28 TIF>
 >0x0D TIF> >0x21 TIF> >0x0D TIF> >0x21 TIF> >0x0D TIF> >0x21 TIF>TPIU fitted.ETM fitted. >0x0D TIF> >0x28 TIF> >0x0D TIF> >0x21 TIF> >0x0D TIF> >0x21 TIF> >0x0D TIF> >0x28 TIF> >0x0D TIF> >0x21 TIF> >0x0D TIF> >0x21 TIF>FPUnit: 6 code (BP) slots and 2 literal slots >0x0D TIF> >0x28 TIF> >0x0D TIF> >0x21 TIF> >0x0D TIF> >0x21 TIF> >0x0D TIF> >0x28 TIF> >0x0D TIF> >0x28 TIF> >0x0D TIF> >0x28 TIF> >0x0D TIF> >0x21 TIF> >0x0D TIF> >0x21 TIF> >0x0D TIF> >0x28 TIF> >0x0D TIF> >0x21 TIF> >0x0D TIF> >0x21 TIF>
 >0x0D TIF> >0x28 TIF> >0x0D TIF> >0x21 TIF> >0x0D TIF> >0x21 TIF>Found Cortex-M3 r1p1, Little endian. >0x0D TIF> >0x21 TIF>  returns 0x1BA01477 (0068ms, 0142ms total)
T075C 000:154 JLINK_GetDeviceFamily()  returns 3 (0000ms, 0142ms total)
T075C 000:159 JLINK_ReadMem (0xE00FFFF0, 0x0010 Bytes, ...) -- CPU is running -- CPU_ReadMem(16 bytes @ 0xE00FFFF0) -- Data:  0D 00 00 00 10 00 00 00 05 00 00 00 B1 00 00 00  returns 0x00 (0001ms, 0143ms total)
T075C 000:160 JLINK_ReadMem (0xE00FFFD0, 0x0020 Bytes, ...) -- CPU is running -- CPU_ReadMem(32 bytes @ 0xE00FFFD0) -- Data:  00 00 00 00 00 00 00 00 00 00 00 00 00 00 00 00 ...  returns 0x00 (0001ms, 0144ms total)
T075C 000:161 JLINK_ReadMem (0xE00FF000, 0x0018 Bytes, ...) -- CPU is running -- CPU_ReadMem(24 bytes @ 0xE00FF000) -- Data:  03 F0 F0 FF 03 20 F0 FF 03 30 F0 FF 03 10 F0 FF ...  returns 0x00 (0001ms, 0145ms total)
T075C 000:162 JLINK_ReadMemU32(0xE000ED00, 0x0001 Items, ...) -- CPU is running -- CPU_ReadMem(4 bytes @ 0xE000ED00) -- Data:  31 C2 1F 41  returns 0x01 (0001ms, 0146ms total)
T075C 000:163 JLINK_SetResetType(JLINKARM_RESET_TYPE_NORMAL)  returns JLINKARM_RESET_TYPE_NORMAL (0000ms, 0146ms total)
T075C 000:163 JLINK_Reset() -- CPU is running -- CPU_WriteMem(4 bytes @ 0xE000EDF0) -- CPU is running -- CPU_WriteMem(4 bytes @ 0xE000EDFC) >0x35 TIF> -- CPU is running -- CPU_WriteMem(4 bytes @ 0xE000ED0C) -- CPU is running -- CPU_ReadMem(4 bytes @ 0xE000EDF0) -- CPU is running -- CPU_ReadMem(4 bytes @ 0xE000EDF0) -- CPU is running -- CPU_WriteMem(4 bytes @ 0xE000EDF0) -- CPU is running -- CPU_WriteMem(4 bytes @ 0xE000EDFC) -- CPU is running -- CPU_ReadMem(4 bytes @ 0xE000EDF0)
 -- CPU_WriteMem(4 bytes @ 0xE0002000) (0017ms, 0163ms total)
T075C 000:180 JLINK_Halt()  returns 0x00 (0000ms, 0163ms total)
T075C 000:180 JLINK_IsHalted()  returns TRUE (0000ms, 0163ms total)
T075C 000:180 JLINK_ReadMemU32(0xE000EDF0, 0x0001 Items, ...) -- CPU_ReadMem(4 bytes @ 0xE000EDF0) -- Data:  03 00 03 00  returns 0x01 (0001ms, 0164ms total)
T075C 000:181 JLINK_WriteU32(0xE000EDF0, 0xA05F0003) -- CPU_WriteMem(4 bytes @ 0xE000EDF0)  returns 0x00 (0001ms, 0165ms total)
T075C 000:182 JLINK_WriteU32(0xE000EDFC, 0x01000000) -- CPU_WriteMem(4 bytes @ 0xE000EDFC)  returns 0x00 (0000ms, 0165ms total)
T075C 000:196 JLINK_GetHWStatus(...)  returns 0x00 (0001ms, 0166ms total)
T075C 000:211 JLINK_GetNumBPUnits(Type = 0xFFFFFF00)  returns 0x06 (0000ms, 0166ms total)
T075C 000:211 JLINK_GetNumBPUnits(Type = 0xF0)  returns 0x2000 (0000ms, 0166ms total)
T075C 000:211 JLINK_GetNumWPUnits()  returns 0x04 (0000ms, 0166ms total)
T075C 000:218 JLINK_GetSpeed()  returns 0x7D0 (0000ms, 0166ms total)
T075C 000:223 JLINK_ReadMemU32(0xE000E004, 0x0001 Items, ...) -- CPU_ReadMem(4 bytes @ 0xE000E004) -- Data:  01 00 00 00  returns 0x01 (0000ms, 0166ms total)
T075C 000:223 JLINK_ReadMemU32(0xE000E004, 0x0001 Items, ...) -- CPU_ReadMem(4 bytes @ 0xE000E004) -- Data:  01 00 00 00  returns 0x01 (0001ms, 0167ms total)
T075C 000:224 JLINK_WriteMem(0xE0001000, 0x001C Bytes, ...) -- Data:  01 00 00 00 00 00 00 00 00 00 00 00 00 00 00 00 ... -- CPU_WriteMem(28 bytes @ 0xE0001000)  returns 0x1C (0001ms, 0168ms total)
T075C 000:225 JLINK_ReadMem (0xE0001000, 0x001C Bytes, ...) -- CPU_ReadMem(28 bytes @ 0xE0001000) -- Data:  01 00 00 40 00 00 00 00 00 00 00 00 00 00 00 00 ...  returns 0x00 (0001ms, 0169ms total)
T075C 000:226 JLINK_Halt()  returns 0x00 (0000ms, 0169ms total)
T075C 000:226 JLINK_IsHalted()  returns TRUE (0000ms, 0169ms total)
T075C 000:228 JLINK_WriteMem(0x20000000, 0x0164 Bytes, ...) -- Data:  00 BE 0A E0 0D 78 2D 06 68 40 08 24 40 00 00 D3 ... -- CPU_WriteMem(356 bytes @ 0x20000000)  returns 0x164 (0004ms, 0173ms total)
T075C 000:232 JLINK_WriteReg(R0, 0x08000000)  returns 0x00 (0000ms, 0173ms total)
T075C 000:232 JLINK_WriteReg(R1, 0x007A1200)  returns 0x00 (0000ms, 0173ms total)
T075C 000:232 JLINK_WriteReg(R2, 0x00000001)  returns 0x00 (0000ms, 0173ms total)
T075C 000:232 JLINK_WriteReg(R3, 0x00000000)  returns 0x00 (0000ms, 0173ms total)
T075C 000:232 JLINK_WriteReg(R4, 0x00000000)  returns 0x00 (0000ms, 0173ms total)
T075C 000:232 JLINK_WriteReg(R5, 0x00000000)  returns 0x00 (0000ms, 0173ms total)
T075C 000:232 JLINK_WriteReg(R6, 0x00000000)  returns 0x00 (0000ms, 0173ms total)
T075C 000:232 JLINK_WriteReg(R7, 0x00000000)  returns 0x00 (0000ms, 0173ms total)
T075C 000:232 JLINK_WriteReg(R8, 0x00000000)  returns 0x00 (0000ms, 0173ms total)
T075C 000:232 JLINK_WriteReg(R9, 0x20000160)  returns 0x00 (0000ms, 0173ms total)
T075C 000:232 JLINK_WriteReg(R10, 0x00000000)  returns 0x00 (0000ms, 0173ms total)
T075C 000:232 JLINK_WriteReg(R11, 0x00000000)  returns 0x00 (0000ms, 0173ms total)
T075C 000:232 JLINK_WriteReg(R12, 0x00000000)  returns 0x00 (0000ms, 0173ms total)
T075C 000:232 JLINK_WriteReg(R13, 0x20000800)  returns 0x00 (0000ms, 0173ms total)
T075C 000:232 JLINK_WriteReg(R14, 0x20000001)  returns 0x00 (0000ms, 0173ms total)
T075C 000:232 JLINK_WriteReg(R15, 0x20000038)  returns 0x00 (0000ms, 0173ms total)
T075C 000:232 JLINK_WriteReg(XPSR, 0x01000000)  returns 0x00 (0000ms, 0173ms total)
T075C 000:232 JLINK_WriteReg(MSP, 0x20000800)  returns 0x00 (0000ms, 0173ms total)
T075C 000:232 JLINK_WriteReg(PSP, 0x20000800)  returns 0x00 (0000ms, 0173ms total)
T075C 000:232 JLINK_WriteReg(CFBP, 0x00000000)  returns 0x00 (0000ms, 0173ms total)
T075C 000:232 JLINK_SetBPEx(Addr = 0x20000000, Type = 0xFFFFFFF2) -- CPU_ReadMem(2 bytes @ 0x20000000)  returns 0x00000001 (0001ms, 0174ms total)
T075C 000:233 JLINK_Go() -- CPU_WriteMem(2 bytes @ 0x20000000) -- CPU_WriteMem(4 bytes @ 0xE0002008) -- CPU_WriteMem(4 bytes @ 0xE000200C) -- CPU_WriteMem(4 bytes @ 0xE0002010) -- CPU_WriteMem(4 bytes @ 0xE0002014) -- CPU_WriteMem(4 bytes @ 0xE0002018) -- CPU_WriteMem(4 bytes @ 0xE000201C) (0007ms, 0181ms total)
T075C 000:240 JLINK_IsHalted() -- CPU_ReadMem(2 bytes @ 0x20000000)  returns TRUE (0005ms, 0186ms total)
T075C 000:245 JLINK_ReadReg(R15)  returns 0x20000000 (0000ms, 0181ms total)
T075C 000:245 JLINK_ClrBPEx(BPHandle = 0x00000001)  returns 0x00 (0000ms, 0181ms total)
T075C 000:245 JLINK_ReadReg(R0)  returns 0x00000000 (0000ms, 0181ms total)
T075C 000:245 JLINK_WriteReg(R0, 0x08000000)  returns 0x00 (0001ms, 0182ms total)
T075C 000:246 JLINK_WriteReg(R1, 0x007A1200)  returns 0x00 (0000ms, 0182ms total)
T075C 000:246 JLINK_WriteReg(R2, 0x00000001)  returns 0x00 (0000ms, 0182ms total)
T075C 000:246 JLINK_WriteReg(R3, 0x00000000)  returns 0x00 (0000ms, 0182ms total)
T075C 000:246 JLINK_WriteReg(R4, 0x00000000)  returns 0x00 (0000ms, 0182ms total)
T075C 000:246 JLINK_WriteReg(R5, 0x00000000)  returns 0x00 (0000ms, 0182ms total)
T075C 000:246 JLINK_WriteReg(R6, 0x00000000)  returns 0x00 (0000ms, 0182ms total)
T075C 000:246 JLINK_WriteReg(R7, 0x00000000)  returns 0x00 (0000ms, 0182ms total)
T075C 000:246 JLINK_WriteReg(R8, 0x00000000)  returns 0x00 (0000ms, 0182ms total)
T075C 000:246 JLINK_WriteReg(R9, 0x20000160)  returns 0x00 (0000ms, 0182ms total)
T075C 000:246 JLINK_WriteReg(R10, 0x00000000)  returns 0x00 (0000ms, 0182ms total)
T075C 000:246 JLINK_WriteReg(R11, 0x00000000)  returns 0x00 (0000ms, 0182ms total)
T075C 000:246 JLINK_WriteReg(R12, 0x00000000)  returns 0x00 (0000ms, 0182ms total)
T075C 000:246 JLINK_WriteReg(R13, 0x20000800)  returns 0x00 (0000ms, 0182ms total)
T075C 000:246 JLINK_WriteReg(R14, 0x20000001)  returns 0x00 (0000ms, 0182ms total)
T075C 000:246 JLINK_WriteReg(R15, 0x2000007C)  returns 0x00 (0000ms, 0182ms total)
T075C 000:246 JLINK_WriteReg(XPSR, 0x01000000)  returns 0x00 (0000ms, 0182ms total)
T075C 000:246 JLINK_WriteReg(MSP, 0x20000800)  returns 0x00 (0000ms, 0182ms total)
T075C 000:246 JLINK_WriteReg(PSP, 0x20000800)  returns 0x00 (0000ms, 0182ms total)
T075C 000:246 JLINK_WriteReg(CFBP, 0x00000000)  returns 0x00 (0000ms, 0182ms total)
T075C 000:246 JLINK_SetBPEx(Addr = 0x20000000, Type = 0xFFFFFFF2)  returns 0x00000002 (0000ms, 0182ms total)
T075C 000:246 JLINK_Go() (0002ms, 0184ms total)
T075C 000:248 JLINK_IsHalted()  returns FALSE (0000ms, 0184ms total)
T075C 000:268 JLINK_IsHalted()  returns FALSE (0000ms, 0184ms total)
T075C 000:269 JLINK_IsHalted()  returns FALSE (0000ms, 0184ms total)
T075C 000:270 JLINK_IsHalted() -- CPU_ReadMem(2 bytes @ 0x20000000)  returns TRUE (0005ms, 0189ms total)
T075C 000:275 JLINK_ReadReg(R15)  returns 0x20000000 (0000ms, 0184ms total)
T075C 000:275 JLINK_ClrBPEx(BPHandle = 0x00000002)  returns 0x00 (0000ms, 0184ms total)
T075C 000:275 JLINK_ReadReg(R0)  returns 0x00000000 (0000ms, 0184ms total)
T075C 000:325 JLINK_WriteReg(R0, 0x00000001)  returns 0x00 (0000ms, 0184ms total)
T075C 000:326 JLINK_WriteReg(R1, 0x007A1200)  returns 0x00 (0000ms, 0185ms total)
T075C 000:326 JLINK_WriteReg(R2, 0x00000001)  returns 0x00 (0000ms, 0185ms total)
T075C 000:326 JLINK_WriteReg(R3, 0x00000000)  returns 0x00 (0000ms, 0185ms total)
T075C 000:326 JLINK_WriteReg(R4, 0x00000000)  returns 0x00 (0000ms, 0185ms total)
T075C 000:326 JLINK_WriteReg(R5, 0x00000000)  returns 0x00 (0000ms, 0185ms total)
T075C 000:326 JLINK_WriteReg(R6, 0x00000000)  returns 0x00 (0000ms, 0185ms total)
T075C 000:326 JLINK_WriteReg(R7, 0x00000000)  returns 0x00 (0000ms, 0185ms total)
T075C 000:326 JLINK_WriteReg(R8, 0x00000000)  returns 0x00 (0000ms, 0185ms total)
T075C 000:326 JLINK_WriteReg(R9, 0x20000160)  returns 0x00 (0000ms, 0185ms total)
T075C 000:326 JLINK_WriteReg(R10, 0x00000000)  returns 0x00 (0000ms, 0185ms total)
T075C 000:326 JLINK_WriteReg(R11, 0x00000000)  returns 0x00 (0000ms, 0185ms total)
T075C 000:326 JLINK_WriteReg(R12, 0x00000000)  returns 0x00 (0000ms, 0185ms total)
T075C 000:326 JLINK_WriteReg(R13, 0x20000800)  returns 0x00 (0000ms, 0185ms total)
T075C 000:326 JLINK_WriteReg(R14, 0x20000001)  returns 0x00 (0000ms, 0185ms total)
T075C 000:326 JLINK_WriteReg(R15, 0x2000006A)  returns 0x00 (0000ms, 0185ms total)
T075C 000:326 JLINK_WriteReg(XPSR, 0x01000000)  returns 0x00 (0000ms, 0185ms total)
T075C 000:326 JLINK_WriteReg(MSP, 0x20000800)  returns 0x00 (0000ms, 0185ms total)
T075C 000:326 JLINK_WriteReg(PSP, 0x20000800)  returns 0x00 (0000ms, 0185ms total)
T075C 000:326 JLINK_WriteReg(CFBP, 0x00000000)  returns 0x00 (0000ms, 0185ms total)
T075C 000:326 JLINK_SetBPEx(Addr = 0x20000000, Type = 0xFFFFFFF2)  returns 0x00000003 (0000ms, 0185ms total)
T075C 000:326 JLINK_Go() (0002ms, 0187ms total)
T075C 000:328 JLINK_IsHalted() -- CPU_ReadMem(2 bytes @ 0x20000000)  returns TRUE (0005ms, 0192ms total)
T075C 000:333 JLINK_ReadReg(R15)  returns 0x20000000 (0000ms, 0187ms total)
T075C 000:333 JLINK_ClrBPEx(BPHandle = 0x00000003)  returns 0x00 (0000ms, 0187ms total)
T075C 000:333 JLINK_ReadReg(R0)  returns 0x00000000 (0000ms, 0187ms total)
T075C 000:341 JLINK_WriteMem(0x20000000, 0x0164 Bytes, ...) -- Data:  00 BE 0A E0 0D 78 2D 06 68 40 08 24 40 00 00 D3 ... -- CPU_WriteMem(356 bytes @ 0x20000000)  returns 0x164 (0003ms, 0190ms total)
T075C 000:344 JLINK_WriteReg(R0, 0x08000000)  returns 0x00 (0000ms, 0190ms total)
T075C 000:344 JLINK_WriteReg(R1, 0x007A1200)  returns 0x00 (0000ms, 0190ms total)
T075C 000:344 JLINK_WriteReg(R2, 0x00000002)  returns 0x00 (0001ms, 0191ms total)
T075C 000:345 JLINK_WriteReg(R3, 0x00000000)  returns 0x00 (0000ms, 0191ms total)
T075C 000:345 JLINK_WriteReg(R4, 0x00000000)  returns 0x00 (0000ms, 0191ms total)
T075C 000:345 JLINK_WriteReg(R5, 0x00000000)  returns 0x00 (0000ms, 0191ms total)
T075C 000:345 JLINK_WriteReg(R6, 0x00000000)  returns 0x00 (0000ms, 0191ms total)
T075C 000:345 JLINK_WriteReg(R7, 0x00000000)  returns 0x00 (0000ms, 0191ms total)
T075C 000:345 JLINK_WriteReg(R8, 0x00000000)  returns 0x00 (0000ms, 0191ms total)
T075C 000:345 JLINK_WriteReg(R9, 0x20000160)  returns 0x00 (0000ms, 0191ms total)
T075C 000:345 JLINK_WriteReg(R10, 0x00000000)  returns 0x00 (0000ms, 0191ms total)
T075C 000:345 JLINK_WriteReg(R11, 0x00000000)  returns 0x00 (0000ms, 0191ms total)
T075C 000:345 JLINK_WriteReg(R12, 0x00000000)  returns 0x00 (0000ms, 0191ms total)
T075C 000:345 JLINK_WriteReg(R13, 0x20000800)  returns 0x00 (0000ms, 0191ms total)
T075C 000:345 JLINK_WriteReg(R14, 0x20000001)  returns 0x00 (0000ms, 0191ms total)
T075C 000:345 JLINK_WriteReg(R15, 0x20000038)  returns 0x00 (0000ms, 0191ms total)
T075C 000:345 JLINK_WriteReg(XPSR, 0x01000000)  returns 0x00 (0000ms, 0191ms total)
T075C 000:345 JLINK_WriteReg(MSP, 0x20000800)  returns 0x00 (0000ms, 0191ms total)
T075C 000:345 JLINK_WriteReg(PSP, 0x20000800)  returns 0x00 (0000ms, 0191ms total)
T075C 000:345 JLINK_WriteReg(CFBP, 0x00000000)  returns 0x00 (0000ms, 0191ms total)
T075C 000:345 JLINK_SetBPEx(Addr = 0x20000000, Type = 0xFFFFFFF2) -- CPU_ReadMem(2 bytes @ 0x20000000)  returns 0x00000004 (0001ms, 0192ms total)
T075C 000:346 JLINK_Go() -- CPU_WriteMem(2 bytes @ 0x20000000) (0003ms, 0195ms total)
T075C 000:349 JLINK_IsHalted() -- CPU_ReadMem(2 bytes @ 0x20000000)  returns TRUE (0005ms, 0200ms total)
T075C 000:354 JLINK_ReadReg(R15)  returns 0x20000000 (0000ms, 0195ms total)
T075C 000:354 JLINK_ClrBPEx(BPHandle = 0x00000004)  returns 0x00 (0000ms, 0195ms total)
T075C 000:354 JLINK_ReadReg(R0)  returns 0x00000000 (0000ms, 0195ms total)
T075C 000:354 JLINK_WriteMem(0x20000164, 0x0400 Bytes, ...) -- Data:  B8 FC 00 20 5D 0D 00 08 91 03 00 08 93 03 00 08 ... -- CPU_WriteMem(1024 bytes @ 0x20000164)  returns 0x400 (0009ms, 0204ms total)
T075C 000:363 JLINK_WriteReg(R0, 0x08000000)  returns 0x00 (0000ms, 0204ms total)
T075C 000:363 JLINK_WriteReg(R1, 0x00000400)  returns 0x00 (0000ms, 0204ms total)
T075C 000:363 JLINK_WriteReg(R2, 0x20000164)  returns 0x00 (0000ms, 0204ms total)
T075C 000:363 JLINK_WriteReg(R3, 0x00000000)  returns 0x00 (0000ms, 0204ms total)
T075C 000:363 JLINK_WriteReg(R4, 0x00000000)  returns 0x00 (0000ms, 0204ms total)
T075C 000:363 JLINK_WriteReg(R5, 0x00000000)  returns 0x00 (0000ms, 0204ms total)
T075C 000:363 JLINK_WriteReg(R6, 0x00000000)  returns 0x00 (0000ms, 0204ms total)
T075C 000:363 JLINK_WriteReg(R7, 0x00000000)  returns 0x00 (0000ms, 0204ms total)
T075C 000:363 JLINK_WriteReg(R8, 0x00000000)  returns 0x00 (0000ms, 0204ms total)
T075C 000:363 JLINK_WriteReg(R9, 0x20000160)  returns 0x00 (0000ms, 0204ms total)
T075C 000:363 JLINK_WriteReg(R10, 0x00000000)  returns 0x00 (0000ms, 0204ms total)
T075C 000:363 JLINK_WriteReg(R11, 0x00000000)  returns 0x00 (0000ms, 0204ms total)
T075C 000:363 JLINK_WriteReg(R12, 0x00000000)  returns 0x00 (0000ms, 0204ms total)
T075C 000:364 JLINK_WriteReg(R13, 0x20000800)  returns 0x00 (0000ms, 0205ms total)
T075C 000:364 JLINK_WriteReg(R14, 0x20000001)  returns 0x00 (0000ms, 0205ms total)
T075C 000:364 JLINK_WriteReg(R15, 0x200000F4)  returns 0x00 (0000ms, 0205ms total)
T075C 000:364 JLINK_WriteReg(XPSR, 0x01000000)  returns 0x00 (0000ms, 0205ms total)
T075C 000:364 JLINK_WriteReg(MSP, 0x20000800)  returns 0x00 (0000ms, 0205ms total)
T075C 000:364 JLINK_WriteReg(PSP, 0x20000800)  returns 0x00 (0000ms, 0205ms total)
T075C 000:364 JLINK_WriteReg(CFBP, 0x00000000)  returns 0x00 (0000ms, 0205ms total)
T075C 000:364 JLINK_SetBPEx(Addr = 0x20000000, Type = 0xFFFFFFF2)  returns 0x00000005 (0000ms, 0205ms total)
T075C 000:364 JLINK_Go() (0002ms, 0207ms total)
T075C 000:366 JLINK_IsHalted()  returns FALSE (0001ms, 0208ms total)
T075C 000:379 JLINK_IsHalted()  returns FALSE (0000ms, 0207ms total)
T075C 000:380 JLINK_IsHalted()  returns FALSE (0000ms, 0207ms total)
T075C 000:381 JLINK_IsHalted()  returns FALSE (0000ms, 0207ms total)
T075C 000:382 JLINK_IsHalted()  returns FALSE (0000ms, 0207ms total)
T075C 000:383 JLINK_IsHalted()  returns FALSE (0000ms, 0207ms total)
T075C 000:384 JLINK_IsHalted()  returns FALSE (0000ms, 0207ms total)
T075C 000:385 JLINK_IsHalted()  returns FALSE (0000ms, 0207ms total)
T075C 000:386 JLINK_IsHalted()  returns FALSE (0000ms, 0207ms total)
T075C 000:387 JLINK_IsHalted()  returns FALSE (0000ms, 0207ms total)
T075C 000:388 JLINK_IsHalted()  returns FALSE (0000ms, 0207ms total)
T075C 000:389 JLINK_IsHalted()  returns FALSE (0000ms, 0207ms total)
T075C 000:390 JLINK_IsHalted()  returns FALSE (0000ms, 0207ms total)
T075C 000:391 JLINK_IsHalted()  returns FALSE (0000ms, 0207ms total)
T075C 000:392 JLINK_IsHalted()  returns FALSE (0000ms, 0207ms total)
T075C 000:393 JLINK_IsHalted()  returns FALSE (0000ms, 0207ms total)
T075C 000:394 JLINK_IsHalted()  returns FALSE (0000ms, 0207ms total)
T075C 000:395 JLINK_IsHalted()  returns FALSE (0000ms, 0207ms total)
T075C 000:396 JLINK_IsHalted()  returns FALSE (0000ms, 0207ms total)
T075C 000:397 JLINK_IsHalted() -- CPU_ReadMem(2 bytes @ 0x20000000)  returns TRUE (0004ms, 0211ms total)
T075C 000:401 JLINK_ReadReg(R15)  returns 0x20000000 (0000ms, 0207ms total)
T075C 000:401 JLINK_ClrBPEx(BPHandle = 0x00000005)  returns 0x00 (0000ms, 0207ms total)
T075C 000:401 JLINK_ReadReg(R0)  returns 0x00000000 (0000ms, 0207ms total)
T075C 000:402 JLINK_WriteMem(0x20000164, 0x0400 Bytes, ...) -- Data:  08 46 00 68 20 F0 03 00 08 60 08 46 00 68 40 F0 ... -- CPU_WriteMem(1024 bytes @ 0x20000164)  returns 0x400 (0008ms, 0215ms total)
T075C 000:410 JLINK_WriteReg(R0, 0x08000400)  returns 0x00 (0000ms, 0215ms total)
T075C 000:410 JLINK_WriteReg(R1, 0x00000400)  returns 0x00 (0000ms, 0215ms total)
T075C 000:410 JLINK_WriteReg(R2, 0x20000164)  returns 0x00 (0000ms, 0215ms total)
T075C 000:411 JLINK_WriteReg(R3, 0x00000000)  returns 0x00 (0000ms, 0216ms total)
T075C 000:411 JLINK_WriteReg(R4, 0x00000000)  returns 0x00 (0000ms, 0216ms total)
T075C 000:411 JLINK_WriteReg(R5, 0x00000000)  returns 0x00 (0000ms, 0216ms total)
T075C 000:411 JLINK_WriteReg(R6, 0x00000000)  returns 0x00 (0000ms, 0216ms total)
T075C 000:411 JLINK_WriteReg(R7, 0x00000000)  returns 0x00 (0000ms, 0216ms total)
T075C 000:411 JLINK_WriteReg(R8, 0x00000000)  returns 0x00 (0000ms, 0216ms total)
T075C 000:411 JLINK_WriteReg(R9, 0x20000160)  returns 0x00 (0000ms, 0216ms total)
T075C 000:411 JLINK_WriteReg(R10, 0x00000000)  returns 0x00 (0000ms, 0216ms total)
T075C 000:411 JLINK_WriteReg(R11, 0x00000000)  returns 0x00 (0000ms, 0216ms total)
T075C 000:411 JLINK_WriteReg(R12, 0x00000000)  returns 0x00 (0000ms, 0216ms total)
T075C 000:411 JLINK_WriteReg(R13, 0x20000800)  returns 0x00 (0000ms, 0216ms total)
T075C 000:411 JLINK_WriteReg(R14, 0x20000001)  returns 0x00 (0000ms, 0216ms total)
T075C 000:411 JLINK_WriteReg(R15, 0x200000F4)  returns 0x00 (0000ms, 0216ms total)
T075C 000:411 JLINK_WriteReg(XPSR, 0x01000000)  returns 0x00 (0000ms, 0216ms total)
T075C 000:411 JLINK_WriteReg(MSP, 0x20000800)  returns 0x00 (0000ms, 0216ms total)
T075C 000:411 JLINK_WriteReg(PSP, 0x20000800)  returns 0x00 (0000ms, 0216ms total)
T075C 000:411 JLINK_WriteReg(CFBP, 0x00000000)  returns 0x00 (0000ms, 0216ms total)
T075C 000:411 JLINK_SetBPEx(Addr = 0x20000000, Type = 0xFFFFFFF2)  returns 0x00000006 (0000ms, 0216ms total)
T075C 000:411 JLINK_Go() (0002ms, 0218ms total)
T075C 000:413 JLINK_IsHalted()  returns FALSE (0001ms, 0219ms total)
T075C 000:415 JLINK_IsHalted()  returns FALSE (0000ms, 0218ms total)
T075C 000:416 JLINK_IsHalted()  returns FALSE (0000ms, 0218ms total)
T075C 000:417 JLINK_IsHalted()  returns FALSE (0000ms, 0218ms total)
T075C 000:418 JLINK_IsHalted()  returns FALSE (0000ms, 0218ms total)
T075C 000:419 JLINK_IsHalted()  returns FALSE (0000ms, 0218ms total)
T075C 000:420 JLINK_IsHalted()  returns FALSE (0000ms, 0218ms total)
T075C 000:421 JLINK_IsHalted()  returns FALSE (0000ms, 0218ms total)
T075C 000:422 JLINK_IsHalted()  returns FALSE (0000ms, 0218ms total)
T075C 000:424 JLINK_IsHalted()  returns FALSE (0000ms, 0218ms total)
T075C 000:425 JLINK_IsHalted()  returns FALSE (0000ms, 0218ms total)
T075C 000:426 JLINK_IsHalted()  returns FALSE (0000ms, 0218ms total)
T075C 000:427 JLINK_IsHalted()  returns FALSE (0000ms, 0218ms total)
T075C 000:428 JLINK_IsHalted()  returns FALSE (0000ms, 0218ms total)
T075C 000:429 JLINK_IsHalted()  returns FALSE (0000ms, 0218ms total)
T075C 000:430 JLINK_IsHalted()  returns FALSE (0000ms, 0218ms total)
T075C 000:431 JLINK_IsHalted()  returns FALSE (0000ms, 0218ms total)
T075C 000:432 JLINK_IsHalted()  returns FALSE (0000ms, 0218ms total)
T075C 000:433 JLINK_IsHalted()  returns FALSE (0000ms, 0218ms total)
T075C 000:434 JLINK_IsHalted()  returns FALSE (0000ms, 0218ms total)
T075C 000:435 JLINK_IsHalted()  returns FALSE (0000ms, 0218ms total)
T075C 000:436 JLINK_IsHalted()  returns FALSE (0000ms, 0218ms total)
T075C 000:437 JLINK_IsHalted()  returns FALSE (0000ms, 0218ms total)
T075C 000:438 JLINK_IsHalted()  returns FALSE (0000ms, 0218ms total)
T075C 000:442 JLINK_IsHalted()  returns FALSE (0000ms, 0218ms total)
T075C 000:443 JLINK_IsHalted()  returns FALSE (0000ms, 0218ms total)
T075C 000:444 JLINK_IsHalted() -- CPU_ReadMem(2 bytes @ 0x20000000)  returns TRUE (0004ms, 0222ms total)
T075C 000:448 JLINK_ReadReg(R15)  returns 0x20000000 (0000ms, 0218ms total)
T075C 000:448 JLINK_ClrBPEx(BPHandle = 0x00000006)  returns 0x00 (0000ms, 0218ms total)
T075C 000:448 JLINK_ReadReg(R0)  returns 0x00000000 (0000ms, 0218ms total)
T075C 000:449 JLINK_WriteMem(0x20000164, 0x0400 Bytes, ...) -- Data:  06 A9 A4 48 02 F0 84 FA 01 21 A2 48 02 F0 AB FA ... -- CPU_WriteMem(1024 bytes @ 0x20000164)  returns 0x400 (0009ms, 0227ms total)
T075C 000:458 JLINK_WriteReg(R0, 0x08000800)  returns 0x00 (0000ms, 0227ms total)
T075C 000:458 JLINK_WriteReg(R1, 0x00000400)  returns 0x00 (0000ms, 0227ms total)
T075C 000:458 JLINK_WriteReg(R2, 0x20000164)  returns 0x00 (0000ms, 0227ms total)
T075C 000:458 JLINK_WriteReg(R3, 0x00000000)  returns 0x00 (0000ms, 0227ms total)
T075C 000:458 JLINK_WriteReg(R4, 0x00000000)  returns 0x00 (0000ms, 0227ms total)
T075C 000:458 JLINK_WriteReg(R5, 0x00000000)  returns 0x00 (0000ms, 0227ms total)
T075C 000:458 JLINK_WriteReg(R6, 0x00000000)  returns 0x00 (0000ms, 0227ms total)
T075C 000:458 JLINK_WriteReg(R7, 0x00000000)  returns 0x00 (0000ms, 0227ms total)
T075C 000:458 JLINK_WriteReg(R8, 0x00000000)  returns 0x00 (0000ms, 0227ms total)
T075C 000:458 JLINK_WriteReg(R9, 0x20000160)  returns 0x00 (0000ms, 0227ms total)
T075C 000:458 JLINK_WriteReg(R10, 0x00000000)  returns 0x00 (0000ms, 0227ms total)
T075C 000:458 JLINK_WriteReg(R11, 0x00000000)  returns 0x00 (0000ms, 0227ms total)
T075C 000:458 JLINK_WriteReg(R12, 0x00000000)  returns 0x00 (0000ms, 0227ms total)
T075C 000:458 JLINK_WriteReg(R13, 0x20000800)  returns 0x00 (0000ms, 0227ms total)
T075C 000:458 JLINK_WriteReg(R14, 0x20000001)  returns 0x00 (0000ms, 0227ms total)
T075C 000:458 JLINK_WriteReg(R15, 0x200000F4)  returns 0x00 (0000ms, 0227ms total)
T075C 000:458 JLINK_WriteReg(XPSR, 0x01000000)  returns 0x00 (0000ms, 0227ms total)
T075C 000:458 JLINK_WriteReg(MSP, 0x20000800)  returns 0x00 (0000ms, 0227ms total)
T075C 000:458 JLINK_WriteReg(PSP, 0x20000800)  returns 0x00 (0000ms, 0227ms total)
T075C 000:458 JLINK_WriteReg(CFBP, 0x00000000)  returns 0x00 (0000ms, 0227ms total)
T075C 000:458 JLINK_SetBPEx(Addr = 0x20000000, Type = 0xFFFFFFF2)  returns 0x00000007 (0000ms, 0227ms total)
T075C 000:458 JLINK_Go() (0002ms, 0229ms total)
T075C 000:460 JLINK_IsHalted()  returns FALSE (0001ms, 0230ms total)
T075C 000:462 JLINK_IsHalted()  returns FALSE (0000ms, 0229ms total)
T075C 000:463 JLINK_IsHalted()  returns FALSE (0000ms, 0229ms total)
T075C 000:464 JLINK_IsHalted()  returns FALSE (0000ms, 0229ms total)
T075C 000:465 JLINK_IsHalted()  returns FALSE (0000ms, 0229ms total)
T075C 000:466 JLINK_IsHalted()  returns FALSE (0000ms, 0229ms total)
T075C 000:467 JLINK_IsHalted()  returns FALSE (0000ms, 0229ms total)
T075C 000:468 JLINK_IsHalted()  returns FALSE (0000ms, 0229ms total)
T075C 000:469 JLINK_IsHalted()  returns FALSE (0000ms, 0229ms total)
T075C 000:470 JLINK_IsHalted()  returns FALSE (0000ms, 0229ms total)
T075C 000:471 JLINK_IsHalted()  returns FALSE (0000ms, 0229ms total)
T075C 000:472 JLINK_IsHalted()  returns FALSE (0000ms, 0229ms total)
T075C 000:473 JLINK_IsHalted()  returns FALSE (0000ms, 0229ms total)
T075C 000:474 JLINK_IsHalted()  returns FALSE (0000ms, 0229ms total)
T075C 000:475 JLINK_IsHalted()  returns FALSE (0000ms, 0229ms total)
T075C 000:476 JLINK_IsHalted()  returns FALSE (0000ms, 0229ms total)
T075C 000:477 JLINK_IsHalted()  returns FALSE (0000ms, 0229ms total)
T075C 000:478 JLINK_IsHalted()  returns FALSE (0000ms, 0229ms total)
T075C 000:479 JLINK_IsHalted()  returns FALSE (0000ms, 0229ms total)
T075C 000:480 JLINK_IsHalted()  returns FALSE (0000ms, 0229ms total)
T075C 000:481 JLINK_IsHalted()  returns FALSE (0000ms, 0229ms total)
T075C 000:482 JLINK_IsHalted()  returns FALSE (0000ms, 0229ms total)
T075C 000:483 JLINK_IsHalted()  returns FALSE (0000ms, 0229ms total)
T075C 000:484 JLINK_IsHalted()  returns FALSE (0000ms, 0229ms total)
T075C 000:485 JLINK_IsHalted()  returns FALSE (0000ms, 0229ms total)
T075C 000:486 JLINK_IsHalted()  returns FALSE (0000ms, 0229ms total)
T075C 000:487 JLINK_IsHalted()  returns FALSE (0000ms, 0229ms total)
T075C 000:488 JLINK_IsHalted()  returns FALSE (0000ms, 0229ms total)
T075C 000:489 JLINK_IsHalted()  returns FALSE (0000ms, 0229ms total)
T075C 000:490 JLINK_IsHalted()  returns FALSE (0000ms, 0229ms total)
T075C 000:491 JLINK_IsHalted()  returns FALSE (0000ms, 0229ms total)
T075C 000:492 JLINK_IsHalted() -- CPU_ReadMem(2 bytes @ 0x20000000)  returns TRUE (0004ms, 0233ms total)
T075C 000:496 JLINK_ReadReg(R15)  returns 0x20000000 (0000ms, 0229ms total)
T075C 000:496 JLINK_ClrBPEx(BPHandle = 0x00000007)  returns 0x00 (0000ms, 0229ms total)
T075C 000:496 JLINK_ReadReg(R0)  returns 0x00000000 (0000ms, 0229ms total)
T075C 000:497 JLINK_WriteMem(0x20000164, 0x0400 Bytes, ...) -- Data:  12 88 12 F0 40 0F FA D0 C2 B2 51 4B 1B 1D 1A 80 ... -- CPU_WriteMem(1024 bytes @ 0x20000164)  returns 0x400 (0009ms, 0238ms total)
T075C 000:506 JLINK_WriteReg(R0, 0x08000C00)  returns 0x00 (0000ms, 0238ms total)
T075C 000:506 JLINK_WriteReg(R1, 0x00000400)  returns 0x00 (0000ms, 0238ms total)
T075C 000:506 JLINK_WriteReg(R2, 0x20000164)  returns 0x00 (0000ms, 0238ms total)
T075C 000:506 JLINK_WriteReg(R3, 0x00000000)  returns 0x00 (0000ms, 0238ms total)
T075C 000:506 JLINK_WriteReg(R4, 0x00000000)  returns 0x00 (0000ms, 0238ms total)
T075C 000:506 JLINK_WriteReg(R5, 0x00000000)  returns 0x00 (0000ms, 0238ms total)
T075C 000:506 JLINK_WriteReg(R6, 0x00000000)  returns 0x00 (0000ms, 0238ms total)
T075C 000:506 JLINK_WriteReg(R7, 0x00000000)  returns 0x00 (0000ms, 0238ms total)
T075C 000:506 JLINK_WriteReg(R8, 0x00000000)  returns 0x00 (0000ms, 0238ms total)
T075C 000:506 JLINK_WriteReg(R9, 0x20000160)  returns 0x00 (0000ms, 0238ms total)
T075C 000:506 JLINK_WriteReg(R10, 0x00000000)  returns 0x00 (0000ms, 0238ms total)
T075C 000:506 JLINK_WriteReg(R11, 0x00000000)  returns 0x00 (0000ms, 0238ms total)
T075C 000:506 JLINK_WriteReg(R12, 0x00000000)  returns 0x00 (0000ms, 0238ms total)
T075C 000:506 JLINK_WriteReg(R13, 0x20000800)  returns 0x00 (0000ms, 0238ms total)
T075C 000:506 JLINK_WriteReg(R14, 0x20000001)  returns 0x00 (0000ms, 0238ms total)
T075C 000:506 JLINK_WriteReg(R15, 0x200000F4)  returns 0x00 (0000ms, 0238ms total)
T075C 000:506 JLINK_WriteReg(XPSR, 0x01000000)  returns 0x00 (0000ms, 0238ms total)
T075C 000:506 JLINK_WriteReg(MSP, 0x20000800)  returns 0x00 (0000ms, 0238ms total)
T075C 000:506 JLINK_WriteReg(PSP, 0x20000800)  returns 0x00 (0000ms, 0238ms total)
T075C 000:506 JLINK_WriteReg(CFBP, 0x00000000)  returns 0x00 (0000ms, 0238ms total)
T075C 000:506 JLINK_SetBPEx(Addr = 0x20000000, Type = 0xFFFFFFF2)  returns 0x00000008 (0000ms, 0238ms total)
T075C 000:506 JLINK_Go() (0003ms, 0241ms total)
T075C 000:509 JLINK_IsHalted()  returns FALSE (0000ms, 0241ms total)
T075C 000:512 JLINK_IsHalted()  returns FALSE (0000ms, 0241ms total)
T075C 000:513 JLINK_IsHalted()  returns FALSE (0000ms, 0241ms total)
T075C 000:514 JLINK_IsHalted()  returns FALSE (0000ms, 0241ms total)
T075C 000:515 JLINK_IsHalted()  returns FALSE (0000ms, 0241ms total)
T075C 000:516 JLINK_IsHalted()  returns FALSE (0000ms, 0241ms total)
T075C 000:519 JLINK_IsHalted()  returns FALSE (0000ms, 0241ms total)
T075C 000:520 JLINK_IsHalted()  returns FALSE (0000ms, 0241ms total)
T075C 000:521 JLINK_IsHalted()  returns FALSE (0000ms, 0241ms total)
T075C 000:522 JLINK_IsHalted()  returns FALSE (0000ms, 0241ms total)
T075C 000:523 JLINK_IsHalted()  returns FALSE (0000ms, 0241ms total)
T075C 000:524 JLINK_IsHalted()  returns FALSE (0000ms, 0241ms total)
T075C 000:525 JLINK_IsHalted()  returns FALSE (0000ms, 0241ms total)
T075C 000:526 JLINK_IsHalted()  returns FALSE (0000ms, 0241ms total)
T075C 000:527 JLINK_IsHalted()  returns FALSE (0000ms, 0241ms total)
T075C 000:528 JLINK_IsHalted()  returns FALSE (0000ms, 0241ms total)
T075C 000:529 JLINK_IsHalted()  returns FALSE (0000ms, 0241ms total)
T075C 000:530 JLINK_IsHalted()  returns FALSE (0000ms, 0241ms total)
T075C 000:533 JLINK_IsHalted()  returns FALSE (0000ms, 0241ms total)
T075C 000:534 JLINK_IsHalted()  returns FALSE (0000ms, 0241ms total)
T075C 000:535 JLINK_IsHalted()  returns FALSE (0000ms, 0241ms total)
T075C 000:536 JLINK_IsHalted()  returns FALSE (0000ms, 0241ms total)
T075C 000:537 JLINK_IsHalted()  returns FALSE (0000ms, 0241ms total)
T075C 000:538 JLINK_IsHalted()  returns FALSE (0000ms, 0241ms total)
T075C 000:539 JLINK_IsHalted()  returns FALSE (0000ms, 0241ms total)
T075C 000:540 JLINK_IsHalted() -- CPU_ReadMem(2 bytes @ 0x20000000)  returns TRUE (0005ms, 0246ms total)
T075C 000:545 JLINK_ReadReg(R15)  returns 0x20000000 (0000ms, 0241ms total)
T075C 000:545 JLINK_ClrBPEx(BPHandle = 0x00000008)  returns 0x00 (0000ms, 0241ms total)
T075C 000:545 JLINK_ReadReg(R0)  returns 0x00000000 (0000ms, 0241ms total)
T075C 000:545 JLINK_WriteMem(0x20000164, 0x0400 Bytes, ...) -- Data:  03 45 83 B2 00 F4 40 16 B6 F5 40 1F 08 D1 21 F0 ... -- CPU_WriteMem(1024 bytes @ 0x20000164)  returns 0x400 (0009ms, 0250ms total)
T075C 000:554 JLINK_WriteReg(R0, 0x08001000)  returns 0x00 (0000ms, 0250ms total)
T075C 000:554 JLINK_WriteReg(R1, 0x00000400)  returns 0x00 (0000ms, 0250ms total)
T075C 000:554 JLINK_WriteReg(R2, 0x20000164)  returns 0x00 (0000ms, 0250ms total)
T075C 000:554 JLINK_WriteReg(R3, 0x00000000)  returns 0x00 (0000ms, 0250ms total)
T075C 000:554 JLINK_WriteReg(R4, 0x00000000)  returns 0x00 (0000ms, 0250ms total)
T075C 000:554 JLINK_WriteReg(R5, 0x00000000)  returns 0x00 (0000ms, 0250ms total)
T075C 000:554 JLINK_WriteReg(R6, 0x00000000)  returns 0x00 (0000ms, 0250ms total)
T075C 000:554 JLINK_WriteReg(R7, 0x00000000)  returns 0x00 (0000ms, 0250ms total)
T075C 000:554 JLINK_WriteReg(R8, 0x00000000)  returns 0x00 (0000ms, 0250ms total)
T075C 000:554 JLINK_WriteReg(R9, 0x20000160)  returns 0x00 (0000ms, 0250ms total)
T075C 000:554 JLINK_WriteReg(R10, 0x00000000)  returns 0x00 (0000ms, 0250ms total)
T075C 000:554 JLINK_WriteReg(R11, 0x00000000)  returns 0x00 (0000ms, 0250ms total)
T075C 000:554 JLINK_WriteReg(R12, 0x00000000)  returns 0x00 (0000ms, 0250ms total)
T075C 000:554 JLINK_WriteReg(R13, 0x20000800)  returns 0x00 (0000ms, 0250ms total)
T075C 000:554 JLINK_WriteReg(R14, 0x20000001)  returns 0x00 (0000ms, 0250ms total)
T075C 000:554 JLINK_WriteReg(R15, 0x200000F4)  returns 0x00 (0000ms, 0250ms total)
T075C 000:554 JLINK_WriteReg(XPSR, 0x01000000)  returns 0x00 (0000ms, 0250ms total)
T075C 000:555 JLINK_WriteReg(MSP, 0x20000800)  returns 0x00 (0000ms, 0251ms total)
T075C 000:555 JLINK_WriteReg(PSP, 0x20000800)  returns 0x00 (0000ms, 0251ms total)
T075C 000:555 JLINK_WriteReg(CFBP, 0x00000000)  returns 0x00 (0000ms, 0251ms total)
T075C 000:555 JLINK_SetBPEx(Addr = 0x20000000, Type = 0xFFFFFFF2)  returns 0x00000009 (0000ms, 0251ms total)
T075C 000:555 JLINK_Go() (0002ms, 0253ms total)
T075C 000:557 JLINK_IsHalted()  returns FALSE (0000ms, 0253ms total)
T075C 000:560 JLINK_IsHalted()  returns FALSE (0000ms, 0253ms total)
T075C 000:561 JLINK_IsHalted()  returns FALSE (0000ms, 0253ms total)
T075C 000:562 JLINK_IsHalted()  returns FALSE (0000ms, 0253ms total)
T075C 000:563 JLINK_IsHalted()  returns FALSE (0000ms, 0253ms total)
T075C 000:564 JLINK_IsHalted()  returns FALSE (0000ms, 0253ms total)
T075C 000:565 JLINK_IsHalted()  returns FALSE (0000ms, 0253ms total)
T075C 000:568 JLINK_IsHalted()  returns FALSE (0000ms, 0253ms total)
T075C 000:569 JLINK_IsHalted()  returns FALSE (0000ms, 0253ms total)
T075C 000:570 JLINK_IsHalted()  returns FALSE (0000ms, 0253ms total)
T075C 000:571 JLINK_IsHalted()  returns FALSE (0000ms, 0253ms total)
T075C 000:572 JLINK_IsHalted()  returns FALSE (0000ms, 0253ms total)
T075C 000:573 JLINK_IsHalted()  returns FALSE (0000ms, 0253ms total)
T075C 000:574 JLINK_IsHalted()  returns FALSE (0000ms, 0253ms total)
T075C 000:575 JLINK_IsHalted()  returns FALSE (0000ms, 0253ms total)
T075C 000:576 JLINK_IsHalted()  returns FALSE (0000ms, 0253ms total)
T075C 000:577 JLINK_IsHalted()  returns FALSE (0000ms, 0253ms total)
T075C 000:578 JLINK_IsHalted()  returns FALSE (0000ms, 0253ms total)
T075C 000:579 JLINK_IsHalted()  returns FALSE (0000ms, 0253ms total)
T075C 000:580 JLINK_IsHalted()  returns FALSE (0000ms, 0253ms total)
T075C 000:581 JLINK_IsHalted()  returns FALSE (0000ms, 0253ms total)
T075C 000:582 JLINK_IsHalted()  returns FALSE (0000ms, 0253ms total)
T075C 000:583 JLINK_IsHalted()  returns FALSE (0000ms, 0253ms total)
T075C 000:584 JLINK_IsHalted()  returns FALSE (0000ms, 0253ms total)
T075C 000:585 JLINK_IsHalted()  returns FALSE (0000ms, 0253ms total)
T075C 000:586 JLINK_IsHalted()  returns FALSE (0000ms, 0253ms total)
T075C 000:587 JLINK_IsHalted()  returns FALSE (0000ms, 0253ms total)
T075C 000:588 JLINK_IsHalted() -- CPU_ReadMem(2 bytes @ 0x20000000)  returns TRUE (0004ms, 0257ms total)
T075C 000:592 JLINK_ReadReg(R15)  returns 0x20000000 (0000ms, 0253ms total)
T075C 000:592 JLINK_ClrBPEx(BPHandle = 0x00000009)  returns 0x00 (0000ms, 0253ms total)
T075C 000:592 JLINK_ReadReg(R0)  returns 0x00000000 (0000ms, 0253ms total)
T075C 000:593 JLINK_WriteMem(0x20000164, 0x0400 Bytes, ...) -- Data:  02 43 13 4B 1A 61 04 E0 11 4A 12 69 82 43 10 4B ... -- CPU_WriteMem(1024 bytes @ 0x20000164)  returns 0x400 (0009ms, 0262ms total)
T075C 000:602 JLINK_WriteReg(R0, 0x08001400)  returns 0x00 (0000ms, 0262ms total)
T075C 000:602 JLINK_WriteReg(R1, 0x00000400)  returns 0x00 (0000ms, 0262ms total)
T075C 000:602 JLINK_WriteReg(R2, 0x20000164)  returns 0x00 (0000ms, 0262ms total)
T075C 000:602 JLINK_WriteReg(R3, 0x00000000)  returns 0x00 (0000ms, 0262ms total)
T075C 000:602 JLINK_WriteReg(R4, 0x00000000)  returns 0x00 (0000ms, 0262ms total)
T075C 000:602 JLINK_WriteReg(R5, 0x00000000)  returns 0x00 (0000ms, 0262ms total)
T075C 000:602 JLINK_WriteReg(R6, 0x00000000)  returns 0x00 (0000ms, 0262ms total)
T075C 000:602 JLINK_WriteReg(R7, 0x00000000)  returns 0x00 (0000ms, 0262ms total)
T075C 000:602 JLINK_WriteReg(R8, 0x00000000)  returns 0x00 (0000ms, 0262ms total)
T075C 000:602 JLINK_WriteReg(R9, 0x20000160)  returns 0x00 (0000ms, 0262ms total)
T075C 000:602 JLINK_WriteReg(R10, 0x00000000)  returns 0x00 (0000ms, 0262ms total)
T075C 000:602 JLINK_WriteReg(R11, 0x00000000)  returns 0x00 (0000ms, 0262ms total)
T075C 000:602 JLINK_WriteReg(R12, 0x00000000)  returns 0x00 (0000ms, 0262ms total)
T075C 000:602 JLINK_WriteReg(R13, 0x20000800)  returns 0x00 (0000ms, 0262ms total)
T075C 000:602 JLINK_WriteReg(R14, 0x20000001)  returns 0x00 (0000ms, 0262ms total)
T075C 000:602 JLINK_WriteReg(R15, 0x200000F4)  returns 0x00 (0000ms, 0262ms total)
T075C 000:602 JLINK_WriteReg(XPSR, 0x01000000)  returns 0x00 (0000ms, 0262ms total)
T075C 000:602 JLINK_WriteReg(MSP, 0x20000800)  returns 0x00 (0000ms, 0262ms total)
T075C 000:602 JLINK_WriteReg(PSP, 0x20000800)  returns 0x00 (0000ms, 0262ms total)
T075C 000:602 JLINK_WriteReg(CFBP, 0x00000000)  returns 0x00 (0000ms, 0262ms total)
T075C 000:602 JLINK_SetBPEx(Addr = 0x20000000, Type = 0xFFFFFFF2)  returns 0x0000000A (0000ms, 0262ms total)
T075C 000:602 JLINK_Go() (0003ms, 0265ms total)
T075C 000:605 JLINK_IsHalted()  returns FALSE (0000ms, 0265ms total)
T075C 000:606 JLINK_IsHalted()  returns FALSE (0000ms, 0265ms total)
T075C 000:607 JLINK_IsHalted()  returns FALSE (0000ms, 0265ms total)
T075C 000:608 JLINK_IsHalted()  returns FALSE (0000ms, 0265ms total)
T075C 000:609 JLINK_IsHalted()  returns FALSE (0000ms, 0265ms total)
T075C 000:610 JLINK_IsHalted()  returns FALSE (0000ms, 0265ms total)
T075C 000:611 JLINK_IsHalted()  returns FALSE (0000ms, 0265ms total)
T075C 000:612 JLINK_IsHalted()  returns FALSE (0000ms, 0265ms total)
T075C 000:613 JLINK_IsHalted()  returns FALSE (0000ms, 0265ms total)
T075C 000:614 JLINK_IsHalted()  returns FALSE (0000ms, 0265ms total)
T075C 000:615 JLINK_IsHalted()  returns FALSE (0000ms, 0265ms total)
T075C 000:616 JLINK_IsHalted()  returns FALSE (0000ms, 0265ms total)
T075C 000:617 JLINK_IsHalted()  returns FALSE (0000ms, 0265ms total)
T075C 000:620 JLINK_IsHalted()  returns FALSE (0000ms, 0265ms total)
T075C 000:621 JLINK_IsHalted()  returns FALSE (0000ms, 0265ms total)
T075C 000:622 JLINK_IsHalted()  returns FALSE (0000ms, 0265ms total)
T075C 000:623 JLINK_IsHalted()  returns FALSE (0000ms, 0265ms total)
T075C 000:628 JLINK_IsHalted()  returns FALSE (0000ms, 0265ms total)
T075C 000:629 JLINK_IsHalted()  returns FALSE (0000ms, 0265ms total)
T075C 000:630 JLINK_IsHalted()  returns FALSE (0000ms, 0265ms total)
T075C 000:631 JLINK_IsHalted()  returns FALSE (0000ms, 0265ms total)
T075C 000:632 JLINK_IsHalted()  returns FALSE (0000ms, 0265ms total)
T075C 000:633 JLINK_IsHalted()  returns FALSE (0000ms, 0265ms total)
T075C 000:635 JLINK_IsHalted()  returns FALSE (0000ms, 0265ms total)
T075C 000:636 JLINK_IsHalted() -- CPU_ReadMem(2 bytes @ 0x20000000)  returns TRUE (0005ms, 0270ms total)
T075C 000:641 JLINK_ReadReg(R15)  returns 0x20000000 (0000ms, 0265ms total)
T075C 000:641 JLINK_ClrBPEx(BPHandle = 0x0000000A)  returns 0x00 (0000ms, 0265ms total)
T075C 000:641 JLINK_ReadReg(R0)  returns 0x00000000 (0000ms, 0265ms total)
T075C 000:641 JLINK_WriteMem(0x20000164, 0x0400 Bytes, ...) -- Data:  00 24 00 23 00 25 00 20 A1 F5 10 66 6A 3E 00 D1 ... -- CPU_WriteMem(1024 bytes @ 0x20000164)  returns 0x400 (0009ms, 0274ms total)
T075C 000:650 JLINK_WriteReg(R0, 0x08001800)  returns 0x00 (0000ms, 0274ms total)
T075C 000:650 JLINK_WriteReg(R1, 0x00000400)  returns 0x00 (0000ms, 0274ms total)
T075C 000:650 JLINK_WriteReg(R2, 0x20000164)  returns 0x00 (0000ms, 0274ms total)
T075C 000:650 JLINK_WriteReg(R3, 0x00000000)  returns 0x00 (0000ms, 0274ms total)
T075C 000:650 JLINK_WriteReg(R4, 0x00000000)  returns 0x00 (0000ms, 0274ms total)
T075C 000:650 JLINK_WriteReg(R5, 0x00000000)  returns 0x00 (0000ms, 0274ms total)
T075C 000:650 JLINK_WriteReg(R6, 0x00000000)  returns 0x00 (0000ms, 0274ms total)
T075C 000:650 JLINK_WriteReg(R7, 0x00000000)  returns 0x00 (0000ms, 0274ms total)
T075C 000:650 JLINK_WriteReg(R8, 0x00000000)  returns 0x00 (0000ms, 0274ms total)
T075C 000:650 JLINK_WriteReg(R9, 0x20000160)  returns 0x00 (0000ms, 0274ms total)
T075C 000:650 JLINK_WriteReg(R10, 0x00000000)  returns 0x00 (0001ms, 0275ms total)
T075C 000:651 JLINK_WriteReg(R11, 0x00000000)  returns 0x00 (0000ms, 0275ms total)
T075C 000:651 JLINK_WriteReg(R12, 0x00000000)  returns 0x00 (0000ms, 0275ms total)
T075C 000:651 JLINK_WriteReg(R13, 0x20000800)  returns 0x00 (0000ms, 0275ms total)
T075C 000:651 JLINK_WriteReg(R14, 0x20000001)  returns 0x00 (0000ms, 0275ms total)
T075C 000:651 JLINK_WriteReg(R15, 0x200000F4)  returns 0x00 (0000ms, 0275ms total)
T075C 000:651 JLINK_WriteReg(XPSR, 0x01000000)  returns 0x00 (0000ms, 0275ms total)
T075C 000:651 JLINK_WriteReg(MSP, 0x20000800)  returns 0x00 (0000ms, 0275ms total)
T075C 000:651 JLINK_WriteReg(PSP, 0x20000800)  returns 0x00 (0000ms, 0275ms total)
T075C 000:651 JLINK_WriteReg(CFBP, 0x00000000)  returns 0x00 (0000ms, 0275ms total)
T075C 000:651 JLINK_SetBPEx(Addr = 0x20000000, Type = 0xFFFFFFF2)  returns 0x0000000B (0000ms, 0275ms total)
T075C 000:651 JLINK_Go() (0002ms, 0277ms total)
T075C 000:653 JLINK_IsHalted()  returns FALSE (0001ms, 0278ms total)
T075C 000:661 JLINK_IsHalted()  returns FALSE (0000ms, 0277ms total)
T075C 000:662 JLINK_IsHalted()  returns FALSE (0000ms, 0277ms total)
T075C 000:663 JLINK_IsHalted()  returns FALSE (0000ms, 0277ms total)
T075C 000:664 JLINK_IsHalted()  returns FALSE (0000ms, 0277ms total)
T075C 000:665 JLINK_IsHalted()  returns FALSE (0000ms, 0277ms total)
T075C 000:668 JLINK_IsHalted()  returns FALSE (0000ms, 0277ms total)
T075C 000:669 JLINK_IsHalted()  returns FALSE (0000ms, 0277ms total)
T075C 000:670 JLINK_IsHalted()  returns FALSE (0000ms, 0277ms total)
T075C 000:671 JLINK_IsHalted()  returns FALSE (0000ms, 0277ms total)
T075C 000:672 JLINK_IsHalted()  returns FALSE (0000ms, 0277ms total)
T075C 000:673 JLINK_IsHalted()  returns FALSE (0000ms, 0277ms total)
T075C 000:675 JLINK_IsHalted()  returns FALSE (0000ms, 0277ms total)
T075C 000:676 JLINK_IsHalted()  returns FALSE (0000ms, 0277ms total)
T075C 000:677 JLINK_IsHalted()  returns FALSE (0000ms, 0277ms total)
T075C 000:678 JLINK_IsHalted()  returns FALSE (0000ms, 0277ms total)
T075C 000:679 JLINK_IsHalted()  returns FALSE (0000ms, 0277ms total)
T075C 000:680 JLINK_IsHalted()  returns FALSE (0000ms, 0277ms total)
T075C 000:681 JLINK_IsHalted()  returns FALSE (0000ms, 0277ms total)
T075C 000:684 JLINK_IsHalted() -- CPU_ReadMem(2 bytes @ 0x20000000)  returns TRUE (0004ms, 0281ms total)
T075C 000:688 JLINK_ReadReg(R15)  returns 0x20000000 (0000ms, 0277ms total)
T075C 000:688 JLINK_ClrBPEx(BPHandle = 0x0000000B)  returns 0x00 (0000ms, 0277ms total)
T075C 000:688 JLINK_ReadReg(R0)  returns 0x00000000 (0000ms, 0277ms total)
T075C 000:689 JLINK_WriteMem(0x20000164, 0x0400 Bytes, ...) -- Data:  85 86 02 84 70 BD 70 B5 00 24 00 22 00 23 05 8C ... -- CPU_WriteMem(1024 bytes @ 0x20000164)  returns 0x400 (0009ms, 0286ms total)
T075C 000:698 JLINK_WriteReg(R0, 0x08001C00)  returns 0x00 (0000ms, 0286ms total)
T075C 000:698 JLINK_WriteReg(R1, 0x00000400)  returns 0x00 (0000ms, 0286ms total)
T075C 000:698 JLINK_WriteReg(R2, 0x20000164)  returns 0x00 (0000ms, 0286ms total)
T075C 000:698 JLINK_WriteReg(R3, 0x00000000)  returns 0x00 (0000ms, 0286ms total)
T075C 000:698 JLINK_WriteReg(R4, 0x00000000)  returns 0x00 (0000ms, 0286ms total)
T075C 000:698 JLINK_WriteReg(R5, 0x00000000)  returns 0x00 (0000ms, 0286ms total)
T075C 000:698 JLINK_WriteReg(R6, 0x00000000)  returns 0x00 (0000ms, 0286ms total)
T075C 000:698 JLINK_WriteReg(R7, 0x00000000)  returns 0x00 (0000ms, 0286ms total)
T075C 000:698 JLINK_WriteReg(R8, 0x00000000)  returns 0x00 (0000ms, 0286ms total)
T075C 000:698 JLINK_WriteReg(R9, 0x20000160)  returns 0x00 (0000ms, 0286ms total)
T075C 000:698 JLINK_WriteReg(R10, 0x00000000)  returns 0x00 (0000ms, 0286ms total)
T075C 000:698 JLINK_WriteReg(R11, 0x00000000)  returns 0x00 (0000ms, 0286ms total)
T075C 000:698 JLINK_WriteReg(R12, 0x00000000)  returns 0x00 (0000ms, 0286ms total)
T075C 000:698 JLINK_WriteReg(R13, 0x20000800)  returns 0x00 (0000ms, 0286ms total)
T075C 000:698 JLINK_WriteReg(R14, 0x20000001)  returns 0x00 (0000ms, 0286ms total)
T075C 000:698 JLINK_WriteReg(R15, 0x200000F4)  returns 0x00 (0000ms, 0286ms total)
T075C 000:698 JLINK_WriteReg(XPSR, 0x01000000)  returns 0x00 (0001ms, 0287ms total)
T075C 000:699 JLINK_WriteReg(MSP, 0x20000800)  returns 0x00 (0000ms, 0287ms total)
T075C 000:699 JLINK_WriteReg(PSP, 0x20000800)  returns 0x00 (0000ms, 0287ms total)
T075C 000:699 JLINK_WriteReg(CFBP, 0x00000000)  returns 0x00 (0000ms, 0287ms total)
T075C 000:699 JLINK_SetBPEx(Addr = 0x20000000, Type = 0xFFFFFFF2)  returns 0x0000000C (0000ms, 0287ms total)
T075C 000:699 JLINK_Go() (0002ms, 0289ms total)
T075C 000:701 JLINK_IsHalted()  returns FALSE (0001ms, 0290ms total)
T075C 000:705 JLINK_IsHalted()  returns FALSE (0000ms, 0289ms total)
T075C 000:708 JLINK_IsHalted()  returns FALSE (0000ms, 0289ms total)
T075C 000:709 JLINK_IsHalted()  returns FALSE (0000ms, 0289ms total)
T075C 000:710 JLINK_IsHalted()  returns FALSE (0000ms, 0289ms total)
T075C 000:711 JLINK_IsHalted()  returns FALSE (0000ms, 0289ms total)
T075C 000:712 JLINK_IsHalted()  returns FALSE (0000ms, 0289ms total)
T075C 000:713 JLINK_IsHalted()  returns FALSE (0000ms, 0289ms total)
T075C 000:715 JLINK_IsHalted()  returns FALSE (0000ms, 0289ms total)
T075C 000:716 JLINK_IsHalted()  returns FALSE (0000ms, 0289ms total)
T075C 000:717 JLINK_IsHalted()  returns FALSE (0000ms, 0289ms total)
T075C 000:718 JLINK_IsHalted()  returns FALSE (0000ms, 0289ms total)
T075C 000:719 JLINK_IsHalted()  returns FALSE (0000ms, 0289ms total)
T075C 000:720 JLINK_IsHalted()  returns FALSE (0000ms, 0289ms total)
T075C 000:721 JLINK_IsHalted()  returns FALSE (0000ms, 0289ms total)
T075C 000:723 JLINK_IsHalted()  returns FALSE (0000ms, 0289ms total)
T075C 000:724 JLINK_IsHalted()  returns FALSE (0000ms, 0289ms total)
T075C 000:725 JLINK_IsHalted()  returns FALSE (0000ms, 0289ms total)
T075C 000:726 JLINK_IsHalted()  returns FALSE (0000ms, 0289ms total)
T075C 000:727 JLINK_IsHalted()  returns FALSE (0000ms, 0289ms total)
T075C 000:728 JLINK_IsHalted()  returns FALSE (0000ms, 0289ms total)
T075C 000:729 JLINK_IsHalted()  returns FALSE (0000ms, 0289ms total)
T075C 000:731 JLINK_IsHalted()  returns FALSE (0000ms, 0289ms total)
T075C 000:732 JLINK_IsHalted() -- CPU_ReadMem(2 bytes @ 0x20000000)  returns TRUE (0004ms, 0293ms total)
T075C 000:737 JLINK_ReadReg(R15)  returns 0x20000000 (0000ms, 0289ms total)
T075C 000:737 JLINK_ClrBPEx(BPHandle = 0x0000000C)  returns 0x00 (0000ms, 0289ms total)
T075C 000:737 JLINK_ReadReg(R0)  returns 0x00000000 (0000ms, 0289ms total)
T075C 000:737 JLINK_WriteMem(0x20000164, 0x0400 Bytes, ...) -- Data:  05 D0 6D 4E B0 42 02 D0 6C 4E B0 42 06 D1 4F F6 ... -- CPU_WriteMem(1024 bytes @ 0x20000164)  returns 0x400 (0009ms, 0298ms total)
T075C 000:746 JLINK_WriteReg(R0, 0x08002000)  returns 0x00 (0000ms, 0298ms total)
T075C 000:746 JLINK_WriteReg(R1, 0x00000400)  returns 0x00 (0000ms, 0298ms total)
T075C 000:746 JLINK_WriteReg(R2, 0x20000164)  returns 0x00 (0000ms, 0298ms total)
T075C 000:746 JLINK_WriteReg(R3, 0x00000000)  returns 0x00 (0000ms, 0298ms total)
T075C 000:746 JLINK_WriteReg(R4, 0x00000000)  returns 0x00 (0000ms, 0298ms total)
T075C 000:746 JLINK_WriteReg(R5, 0x00000000)  returns 0x00 (0000ms, 0298ms total)
T075C 000:746 JLINK_WriteReg(R6, 0x00000000)  returns 0x00 (0000ms, 0298ms total)
T075C 000:746 JLINK_WriteReg(R7, 0x00000000)  returns 0x00 (0000ms, 0298ms total)
T075C 000:746 JLINK_WriteReg(R8, 0x00000000)  returns 0x00 (0000ms, 0298ms total)
T075C 000:746 JLINK_WriteReg(R9, 0x20000160)  returns 0x00 (0000ms, 0298ms total)
T075C 000:746 JLINK_WriteReg(R10, 0x00000000)  returns 0x00 (0000ms, 0298ms total)
T075C 000:746 JLINK_WriteReg(R11, 0x00000000)  returns 0x00 (0000ms, 0298ms total)
T075C 000:746 JLINK_WriteReg(R12, 0x00000000)  returns 0x00 (0000ms, 0298ms total)
